      * c:\users\vinit\desktop\summation-of-counter\1fullfinal\inv\inv.cir
      Transient Analysis  Sun Jan 29 01:18:46  2023
--------------------------------------------------------------------------------
Index   time                            a               m.x1.xsc1.msky1 
--------------------------------------------------------------------------------
0	0.000000e+00	0.000000e+00	0.000000e+00	5.000000e+00	
1	2.000000e-11	0.000000e+00	0.000000e+00	5.000000e+00	
2	4.000000e-11	0.000000e+00	0.000000e+00	5.000000e+00	
3	8.000000e-11	0.000000e+00	0.000000e+00	5.000000e+00	
4	1.600000e-10	0.000000e+00	0.000000e+00	5.000000e+00	
5	3.200000e-10	0.000000e+00	0.000000e+00	5.000000e+00	
6	6.400000e-10	0.000000e+00	0.000000e+00	5.000000e+00	
7	1.280000e-09	0.000000e+00	1.400000e+00	5.000000e+00	
8	2.000000e-09	0.000000e+00	5.000000e+00	5.000000e+00	
9	2.128000e-09	0.000000e+00	5.000000e+00	5.000000e+00	
10	2.280000e-09	0.000000e+00	5.000000e+00	5.000000e+00	
11	2.290000e-09	0.000000e+00	5.000000e+00	4.999943e+00	
12	2.310000e-09	0.000000e+00	5.000000e+00	4.999940e+00	
13	2.350000e-09	0.000000e+00	5.000000e+00	4.999939e+00	
14	2.380000e-09	0.000000e+00	5.000000e+00	4.999951e+00	
15	2.384649e-09	0.000000e+00	5.000000e+00	5.000092e+00	
16	2.393948e-09	0.000000e+00	5.000000e+00	5.000067e+00	
17	2.412544e-09	0.000000e+00	5.000000e+00	5.000059e+00	
18	2.449738e-09	0.000000e+00	5.000000e+00	5.000026e+00	
19	2.524125e-09	0.000000e+00	5.000000e+00	5.000017e+00	
20	2.672899e-09	0.000000e+00	5.000000e+00	4.999947e+00	
21	2.834716e-09	0.000000e+00	5.000000e+00	5.000039e+00	
22	3.000000e-09	0.000000e+00	5.000000e+00	4.999957e+00	
23	3.008218e-09	0.000000e+00	5.000000e+00	5.000236e+00	
24	3.024653e-09	0.000000e+00	5.000000e+00	5.000062e+00	
25	3.057524e-09	0.000000e+00	5.000000e+00	4.999827e+00	
26	3.109147e-09	0.000000e+00	5.000000e+00	4.999379e+00	
27	3.146427e-09	0.000000e+00	5.000000e+00	4.999562e+00	
28	3.189755e-09	0.000000e+00	5.000000e+00	4.999553e+00	
29	3.237344e-09	0.000000e+00	5.000000e+00	4.999875e+00	
30	3.269768e-09	0.000000e+00	5.000000e+00	5.000099e+00	
31	3.317314e-09	0.000000e+00	5.000000e+00	5.000118e+00	
32	3.354261e-09	0.000000e+00	5.000000e+00	5.000109e+00	
33	3.374556e-09	0.000000e+00	5.000000e+00	5.000147e+00	
34	3.399210e-09	0.000000e+00	5.000000e+00	5.000123e+00	
35	3.425139e-09	0.000000e+00	5.000000e+00	5.000153e+00	
36	3.455960e-09	0.000000e+00	5.000000e+00	5.000125e+00	
37	3.502744e-09	0.000000e+00	5.000000e+00	5.000154e+00	
38	3.561537e-09	0.000000e+00	5.000000e+00	5.000124e+00	
39	3.654168e-09	0.000000e+00	5.000000e+00	5.000151e+00	
40	3.756670e-09	0.000000e+00	5.000000e+00	5.000120e+00	
41	3.829509e-09	0.000000e+00	5.000000e+00	5.000207e+00	
42	3.900000e-09	0.000000e+00	5.000000e+00	5.000263e+00	
43	3.909229e-09	0.000000e+00	5.000000e+00	5.000000e+00	
44	3.927687e-09	0.000000e+00	5.000000e+00	4.999998e+00	
45	3.964604e-09	0.000000e+00	5.000000e+00	5.000001e+00	
46	4.038436e-09	0.000000e+00	5.000000e+00	4.999998e+00	
47	4.116590e-09	0.000000e+00	5.000000e+00	5.000002e+00	
48	4.272898e-09	0.000000e+00	5.000000e+00	4.999998e+00	
49	4.354261e-09	0.000000e+00	5.000000e+00	5.000002e+00	
50	4.374556e-09	0.000000e+00	5.000000e+00	5.000000e+00	
51	4.377682e-09	0.000000e+00	5.000000e+00	5.000000e+00	
52	4.383935e-09	0.000000e+00	5.000000e+00	5.000000e+00	
53	4.396439e-09	0.000000e+00	5.000000e+00	5.000000e+00	
54	4.421449e-09	0.000000e+00	5.000000e+00	5.000000e+00	

Index   time                            a               m.x1.xsc1.msky1 
--------------------------------------------------------------------------------
55	4.471467e-09	0.000000e+00	5.000000e+00	5.000000e+00	
56	4.571504e-09	0.000000e+00	5.000000e+00	5.000000e+00	
57	4.771578e-09	0.000000e+00	5.000000e+00	5.000000e+00	
58	5.171726e-09	0.000000e+00	5.000000e+00	5.000000e+00	
59	5.254261e-09	0.000000e+00	5.000000e+00	5.000000e+00	
60	5.264261e-09	0.000000e+00	5.000000e+00	5.000000e+00	
61	5.284261e-09	0.000000e+00	5.000000e+00	5.000000e+00	
62	5.324261e-09	0.000000e+00	5.000000e+00	5.000000e+00	
63	5.354261e-09	0.000000e+00	5.000000e+00	5.000000e+00	
64	5.362261e-09	0.000000e+00	5.000000e+00	5.000000e+00	
65	5.378261e-09	0.000000e+00	5.000000e+00	5.000000e+00	
66	5.410261e-09	0.000000e+00	5.000000e+00	5.000000e+00	
67	5.474261e-09	0.000000e+00	5.000000e+00	5.000000e+00	
68	5.602261e-09	0.000000e+00	5.000000e+00	5.000000e+00	
69	5.858261e-09	0.000000e+00	5.000000e+00	5.000000e+00	
70	6.370261e-09	0.000000e+00	5.000000e+00	5.000000e+00	
71	7.394261e-09	0.000000e+00	5.000000e+00	5.000000e+00	
72	9.442261e-09	0.000000e+00	5.000000e+00	5.000000e+00	
73	1.353826e-08	0.000000e+00	5.000000e+00	5.000000e+00	
74	2.173026e-08	0.000000e+00	5.000000e+00	5.000000e+00	
75	3.811426e-08	0.000000e+00	5.000000e+00	5.000000e+00	
76	7.088226e-08	0.000000e+00	5.000000e+00	5.000000e+00	
77	1.364183e-07	0.000000e+00	5.000000e+00	5.000000e+00	
78	2.674903e-07	0.000000e+00	5.000000e+00	5.000000e+00	
79	5.296343e-07	0.000000e+00	5.000000e+00	5.000000e+00	
80	1.053922e-06	0.000000e+00	5.000000e+00	5.000000e+00	
81	2.102498e-06	0.000000e+00	5.000000e+00	5.000000e+00	
82	4.199650e-06	0.000000e+00	5.000000e+00	5.000000e+00	
83	8.393954e-06	0.000000e+00	5.000000e+00	5.000000e+00	
84	1.678256e-05	0.000000e+00	5.000000e+00	5.000000e+00	
85	3.355978e-05	0.000000e+00	5.000000e+00	5.000000e+00	
86	6.711421e-05	0.000000e+00	5.000000e+00	5.000000e+00	
87	1.342231e-04	0.000000e+00	5.000000e+00	5.000000e+00	
88	2.684408e-04	0.000000e+00	5.000000e+00	5.000000e+00	
89	5.368763e-04	0.000000e+00	5.000000e+00	5.000000e+00	
90	1.073747e-03	0.000000e+00	5.000000e+00	5.000000e+00	
91	2.147489e-03	0.000000e+00	5.000000e+00	5.000000e+00	
92	4.294973e-03	0.000000e+00	5.000000e+00	5.000000e+00	
93	8.589940e-03	0.000000e+00	5.000000e+00	5.000000e+00	
94	1.717987e-02	0.000000e+00	5.000000e+00	5.000000e+00	
95	2.717987e-02	0.000000e+00	5.000000e+00	5.000000e+00	
96	3.717987e-02	0.000000e+00	5.000000e+00	5.000000e+00	
97	4.717987e-02	0.000000e+00	5.000000e+00	5.000000e+00	
98	5.717987e-02	0.000000e+00	5.000000e+00	5.000000e+00	
99	6.717987e-02	0.000000e+00	5.000000e+00	5.000000e+00	
100	7.717987e-02	0.000000e+00	5.000000e+00	5.000000e+00	
101	8.717987e-02	0.000000e+00	5.000000e+00	5.000000e+00	
102	9.717987e-02	0.000000e+00	5.000000e+00	5.000000e+00	
103	1.071799e-01	0.000000e+00	5.000000e+00	5.000000e+00	
104	1.171799e-01	0.000000e+00	5.000000e+00	5.000000e+00	
105	1.271799e-01	0.000000e+00	5.000000e+00	5.000000e+00	
106	1.371799e-01	0.000000e+00	5.000000e+00	5.000000e+00	
107	1.471799e-01	0.000000e+00	5.000000e+00	5.000000e+00	
108	1.571799e-01	0.000000e+00	5.000000e+00	5.000000e+00	
109	1.671799e-01	0.000000e+00	5.000000e+00	5.000000e+00	
110	1.771799e-01	0.000000e+00	5.000000e+00	5.000000e+00	
111	1.871799e-01	0.000000e+00	5.000000e+00	5.000000e+00	
112	1.971799e-01	0.000000e+00	5.000000e+00	5.000000e+00	

Index   time                            a               m.x1.xsc1.msky1 
--------------------------------------------------------------------------------
113	2.071799e-01	0.000000e+00	5.000000e+00	5.000000e+00	
114	2.171799e-01	0.000000e+00	5.000000e+00	5.000000e+00	
115	2.271799e-01	0.000000e+00	5.000000e+00	5.000000e+00	
116	2.371799e-01	0.000000e+00	5.000000e+00	5.000000e+00	
117	2.471799e-01	0.000000e+00	5.000000e+00	5.000000e+00	
118	2.571799e-01	0.000000e+00	5.000000e+00	5.000000e+00	
119	2.671799e-01	0.000000e+00	5.000000e+00	5.000000e+00	
120	2.771799e-01	0.000000e+00	5.000000e+00	5.000000e+00	
121	2.871799e-01	0.000000e+00	5.000000e+00	5.000000e+00	
122	2.971799e-01	0.000000e+00	5.000000e+00	5.000000e+00	
123	3.071799e-01	0.000000e+00	5.000000e+00	5.000000e+00	
124	3.171799e-01	0.000000e+00	5.000000e+00	5.000000e+00	
125	3.271799e-01	0.000000e+00	5.000000e+00	5.000000e+00	
126	3.371799e-01	0.000000e+00	5.000000e+00	5.000000e+00	
127	3.471799e-01	0.000000e+00	5.000000e+00	5.000000e+00	
128	3.571799e-01	0.000000e+00	5.000000e+00	5.000000e+00	
129	3.671799e-01	0.000000e+00	5.000000e+00	5.000000e+00	
130	3.771799e-01	0.000000e+00	5.000000e+00	5.000000e+00	
131	3.871799e-01	0.000000e+00	5.000000e+00	5.000000e+00	
132	3.971799e-01	0.000000e+00	5.000000e+00	5.000000e+00	
133	4.071799e-01	0.000000e+00	5.000000e+00	5.000000e+00	
134	4.171799e-01	0.000000e+00	5.000000e+00	5.000000e+00	
135	4.271799e-01	0.000000e+00	5.000000e+00	5.000000e+00	
136	4.371799e-01	0.000000e+00	5.000000e+00	5.000000e+00	
137	4.471799e-01	0.000000e+00	5.000000e+00	5.000000e+00	
138	4.571799e-01	0.000000e+00	5.000000e+00	5.000000e+00	
139	4.671799e-01	0.000000e+00	5.000000e+00	5.000000e+00	
140	4.771799e-01	0.000000e+00	5.000000e+00	5.000000e+00	
141	4.871799e-01	0.000000e+00	5.000000e+00	5.000000e+00	
142	4.971799e-01	0.000000e+00	5.000000e+00	5.000000e+00	
143	5.071799e-01	0.000000e+00	5.000000e+00	5.000000e+00	
144	5.171799e-01	0.000000e+00	5.000000e+00	5.000000e+00	
145	5.271799e-01	0.000000e+00	5.000000e+00	5.000000e+00	
146	5.371799e-01	0.000000e+00	5.000000e+00	5.000000e+00	
147	5.471799e-01	0.000000e+00	5.000000e+00	5.000000e+00	
148	5.571799e-01	0.000000e+00	5.000000e+00	5.000000e+00	
149	5.671799e-01	0.000000e+00	5.000000e+00	5.000000e+00	
150	5.771799e-01	0.000000e+00	5.000000e+00	5.000000e+00	
151	5.871799e-01	0.000000e+00	5.000000e+00	5.000000e+00	
152	5.971799e-01	0.000000e+00	5.000000e+00	5.000000e+00	
153	6.071799e-01	0.000000e+00	5.000000e+00	5.000000e+00	
154	6.171799e-01	0.000000e+00	5.000000e+00	5.000000e+00	
155	6.271799e-01	0.000000e+00	5.000000e+00	5.000000e+00	
156	6.371799e-01	0.000000e+00	5.000000e+00	5.000000e+00	
157	6.471799e-01	0.000000e+00	5.000000e+00	5.000000e+00	
158	6.571799e-01	0.000000e+00	5.000000e+00	5.000000e+00	
159	6.671799e-01	0.000000e+00	5.000000e+00	5.000000e+00	
160	6.771799e-01	0.000000e+00	5.000000e+00	5.000000e+00	
161	6.871799e-01	0.000000e+00	5.000000e+00	5.000000e+00	
162	6.971799e-01	0.000000e+00	5.000000e+00	5.000000e+00	
163	7.071799e-01	0.000000e+00	5.000000e+00	5.000000e+00	
164	7.171799e-01	0.000000e+00	5.000000e+00	5.000000e+00	
165	7.271799e-01	0.000000e+00	5.000000e+00	5.000000e+00	
166	7.371799e-01	0.000000e+00	5.000000e+00	5.000000e+00	
167	7.471799e-01	0.000000e+00	5.000000e+00	5.000000e+00	
168	7.571799e-01	0.000000e+00	5.000000e+00	5.000000e+00	
169	7.671799e-01	0.000000e+00	5.000000e+00	5.000000e+00	
170	7.771799e-01	0.000000e+00	5.000000e+00	5.000000e+00	

Index   time                            a               m.x1.xsc1.msky1 
--------------------------------------------------------------------------------
171	7.871799e-01	0.000000e+00	5.000000e+00	5.000000e+00	
172	7.971799e-01	0.000000e+00	5.000000e+00	5.000000e+00	
173	8.071799e-01	0.000000e+00	5.000000e+00	5.000000e+00	
174	8.171799e-01	0.000000e+00	5.000000e+00	5.000000e+00	
175	8.271799e-01	0.000000e+00	5.000000e+00	5.000000e+00	
176	8.371799e-01	0.000000e+00	5.000000e+00	5.000000e+00	
177	8.471799e-01	0.000000e+00	5.000000e+00	5.000000e+00	
178	8.571799e-01	0.000000e+00	5.000000e+00	5.000000e+00	
179	8.671799e-01	0.000000e+00	5.000000e+00	5.000000e+00	
180	8.771799e-01	0.000000e+00	5.000000e+00	5.000000e+00	
181	8.871799e-01	0.000000e+00	5.000000e+00	5.000000e+00	
182	8.971799e-01	0.000000e+00	5.000000e+00	5.000000e+00	
183	9.071799e-01	0.000000e+00	5.000000e+00	5.000000e+00	
184	9.171799e-01	0.000000e+00	5.000000e+00	5.000000e+00	
185	9.271799e-01	0.000000e+00	5.000000e+00	5.000000e+00	
186	9.371799e-01	0.000000e+00	5.000000e+00	5.000000e+00	
187	9.471799e-01	0.000000e+00	5.000000e+00	5.000000e+00	
188	9.571799e-01	0.000000e+00	5.000000e+00	5.000000e+00	
189	9.671799e-01	0.000000e+00	5.000000e+00	5.000000e+00	
190	9.771799e-01	0.000000e+00	5.000000e+00	5.000000e+00	
191	9.871799e-01	0.000000e+00	5.000000e+00	5.000000e+00	
192	9.971799e-01	0.000000e+00	5.000000e+00	5.000000e+00	
193	1.000000e+00	0.000000e+00	5.000000e+00	5.000000e+00	
194	1.000000e+00	0.000000e+00	4.500001e+00	5.000000e+00	
195	1.000000e+00	0.000000e+00	3.500001e+00	5.000000e+00	
196	1.000000e+00	0.000000e+00	1.500001e+00	5.000000e+00	
197	1.000000e+00	0.000000e+00	6.965212e-07	5.000000e+00	
198	1.000000e+00	0.000000e+00	0.000000e+00	5.000000e+00	
199	1.000000e+00	0.000000e+00	0.000000e+00	5.000000e+00	
200	1.000000e+00	0.000000e+00	0.000000e+00	5.000000e+00	
201	1.000000e+00	0.000000e+00	0.000000e+00	5.000000e+00	
202	1.000000e+00	0.000000e+00	0.000000e+00	4.999742e+00	
203	1.000000e+00	0.000000e+00	0.000000e+00	4.999751e+00	
204	1.000000e+00	0.000000e+00	0.000000e+00	4.999768e+00	
205	1.000000e+00	0.000000e+00	0.000000e+00	4.999816e+00	
206	1.000000e+00	0.000000e+00	0.000000e+00	4.999882e+00	
207	1.000000e+00	0.000000e+00	0.000000e+00	4.999847e+00	
208	1.000000e+00	0.000000e+00	0.000000e+00	4.999879e+00	
209	1.000000e+00	0.000000e+00	0.000000e+00	4.999846e+00	
210	1.000000e+00	0.000000e+00	0.000000e+00	4.999862e+00	
211	1.000000e+00	0.000000e+00	0.000000e+00	4.999862e+00	
212	1.000000e+00	0.000000e+00	0.000000e+00	4.999861e+00	
213	1.000000e+00	0.000000e+00	0.000000e+00	4.999861e+00	
214	1.000000e+00	0.000000e+00	0.000000e+00	4.999859e+00	
215	1.000000e+00	0.000000e+00	0.000000e+00	4.999859e+00	
216	1.000000e+00	0.000000e+00	0.000000e+00	4.999860e+00	
217	1.000000e+00	0.000000e+00	0.000000e+00	4.999868e+00	
218	1.000000e+00	0.000000e+00	0.000000e+00	4.999880e+00	
219	1.000000e+00	0.000000e+00	0.000000e+00	4.999914e+00	
220	1.000000e+00	0.000000e+00	0.000000e+00	5.000285e+00	
221	1.000000e+00	0.000000e+00	0.000000e+00	5.000214e+00	
222	1.000000e+00	0.000000e+00	0.000000e+00	5.000262e+00	
223	1.000000e+00	0.000000e+00	0.000000e+00	5.000281e+00	
224	1.000000e+00	0.000000e+00	0.000000e+00	5.000264e+00	
225	1.000000e+00	0.000000e+00	0.000000e+00	5.000257e+00	
226	1.000000e+00	0.000000e+00	0.000000e+00	5.000194e+00	
227	1.000000e+00	0.000000e+00	0.000000e+00	5.000390e+00	
228	1.000000e+00	0.000000e+00	0.000000e+00	5.000363e+00	

Index   time                            a               m.x1.xsc1.msky1 
--------------------------------------------------------------------------------
229	1.000000e+00	0.000000e+00	0.000000e+00	5.000330e+00	
230	1.000000e+00	0.000000e+00	0.000000e+00	5.000253e+00	
231	1.000000e+00	0.000000e+00	0.000000e+00	5.000150e+00	
232	1.000000e+00	0.000000e+00	0.000000e+00	5.000056e+00	
233	1.000000e+00	0.000000e+00	0.000000e+00	5.000023e+00	
234	1.000000e+00	0.000000e+00	0.000000e+00	5.000002e+00	
235	1.000000e+00	0.000000e+00	0.000000e+00	5.000005e+00	
236	1.000000e+00	0.000000e+00	0.000000e+00	5.000002e+00	
237	1.000000e+00	0.000000e+00	0.000000e+00	5.000002e+00	
238	1.000000e+00	0.000000e+00	0.000000e+00	5.000002e+00	
239	1.000000e+00	0.000000e+00	0.000000e+00	5.000002e+00	
240	1.000000e+00	0.000000e+00	0.000000e+00	5.000002e+00	
241	1.000000e+00	0.000000e+00	0.000000e+00	5.000002e+00	
242	1.000000e+00	0.000000e+00	0.000000e+00	5.000001e+00	
243	1.000000e+00	0.000000e+00	0.000000e+00	5.000001e+00	
244	1.000000e+00	0.000000e+00	0.000000e+00	5.000001e+00	
245	1.000000e+00	0.000000e+00	0.000000e+00	5.000001e+00	
246	1.000000e+00	0.000000e+00	0.000000e+00	5.000001e+00	
247	1.000000e+00	0.000000e+00	0.000000e+00	5.000001e+00	
248	1.000000e+00	0.000000e+00	0.000000e+00	5.000000e+00	
249	1.000000e+00	0.000000e+00	0.000000e+00	5.000000e+00	
250	1.000000e+00	0.000000e+00	0.000000e+00	5.000000e+00	
251	1.000000e+00	0.000000e+00	0.000000e+00	5.000000e+00	
252	1.000000e+00	0.000000e+00	0.000000e+00	5.000000e+00	
253	1.000000e+00	0.000000e+00	0.000000e+00	5.000000e+00	
254	1.000000e+00	0.000000e+00	0.000000e+00	5.000000e+00	
255	1.000000e+00	0.000000e+00	0.000000e+00	5.000000e+00	
256	1.000000e+00	0.000000e+00	0.000000e+00	5.000000e+00	
257	1.000000e+00	0.000000e+00	0.000000e+00	5.000000e+00	
258	1.000000e+00	0.000000e+00	0.000000e+00	5.000000e+00	
259	1.000000e+00	0.000000e+00	0.000000e+00	5.000000e+00	
260	1.000000e+00	0.000000e+00	0.000000e+00	5.000000e+00	
261	1.000000e+00	0.000000e+00	0.000000e+00	5.000000e+00	
262	1.000000e+00	0.000000e+00	0.000000e+00	5.000000e+00	
263	1.000000e+00	0.000000e+00	0.000000e+00	5.000000e+00	
264	1.000001e+00	0.000000e+00	0.000000e+00	5.000000e+00	
265	1.000001e+00	0.000000e+00	0.000000e+00	5.000000e+00	
266	1.000003e+00	0.000000e+00	0.000000e+00	5.000000e+00	
267	1.000005e+00	0.000000e+00	0.000000e+00	5.000000e+00	
268	1.000011e+00	0.000000e+00	0.000000e+00	5.000000e+00	
269	1.000021e+00	0.000000e+00	0.000000e+00	5.000000e+00	
270	1.000043e+00	0.000000e+00	0.000000e+00	5.000000e+00	
271	1.000086e+00	0.000000e+00	0.000000e+00	5.000000e+00	
272	1.000172e+00	0.000000e+00	0.000000e+00	5.000000e+00	
273	1.000344e+00	0.000000e+00	0.000000e+00	5.000000e+00	
274	1.000687e+00	0.000000e+00	0.000000e+00	5.000000e+00	
275	1.001374e+00	0.000000e+00	0.000000e+00	5.000000e+00	
276	1.002749e+00	0.000000e+00	0.000000e+00	5.000000e+00	
277	1.005498e+00	0.000000e+00	0.000000e+00	5.000000e+00	
278	1.010995e+00	0.000000e+00	0.000000e+00	5.000000e+00	
279	1.020995e+00	0.000000e+00	0.000000e+00	5.000000e+00	
280	1.030995e+00	0.000000e+00	0.000000e+00	5.000000e+00	
281	1.040995e+00	0.000000e+00	0.000000e+00	5.000000e+00	
282	1.050995e+00	0.000000e+00	0.000000e+00	5.000000e+00	
283	1.060995e+00	0.000000e+00	0.000000e+00	5.000000e+00	
284	1.070995e+00	0.000000e+00	0.000000e+00	5.000000e+00	
285	1.080995e+00	0.000000e+00	0.000000e+00	5.000000e+00	
286	1.090995e+00	0.000000e+00	0.000000e+00	5.000000e+00	

Index   time                            a               m.x1.xsc1.msky1 
--------------------------------------------------------------------------------
287	1.100995e+00	0.000000e+00	0.000000e+00	5.000000e+00	
288	1.110995e+00	0.000000e+00	0.000000e+00	5.000000e+00	
289	1.120995e+00	0.000000e+00	0.000000e+00	5.000000e+00	
290	1.130995e+00	0.000000e+00	0.000000e+00	5.000000e+00	
291	1.140995e+00	0.000000e+00	0.000000e+00	5.000000e+00	
292	1.150995e+00	0.000000e+00	0.000000e+00	5.000000e+00	
293	1.160995e+00	0.000000e+00	0.000000e+00	5.000000e+00	
294	1.170995e+00	0.000000e+00	0.000000e+00	5.000000e+00	
295	1.180995e+00	0.000000e+00	0.000000e+00	5.000000e+00	
296	1.190995e+00	0.000000e+00	0.000000e+00	5.000000e+00	
297	1.200995e+00	0.000000e+00	0.000000e+00	5.000000e+00	
298	1.210995e+00	0.000000e+00	0.000000e+00	5.000000e+00	
299	1.220995e+00	0.000000e+00	0.000000e+00	5.000000e+00	
300	1.230995e+00	0.000000e+00	0.000000e+00	5.000000e+00	
301	1.240995e+00	0.000000e+00	0.000000e+00	5.000000e+00	
302	1.250995e+00	0.000000e+00	0.000000e+00	5.000000e+00	
303	1.260995e+00	0.000000e+00	0.000000e+00	5.000000e+00	
304	1.270995e+00	0.000000e+00	0.000000e+00	5.000000e+00	
305	1.280995e+00	0.000000e+00	0.000000e+00	5.000000e+00	
306	1.290995e+00	0.000000e+00	0.000000e+00	5.000000e+00	
307	1.300995e+00	0.000000e+00	0.000000e+00	5.000000e+00	
308	1.310995e+00	0.000000e+00	0.000000e+00	5.000000e+00	
309	1.320995e+00	0.000000e+00	0.000000e+00	5.000000e+00	
310	1.330995e+00	0.000000e+00	0.000000e+00	5.000000e+00	
311	1.340995e+00	0.000000e+00	0.000000e+00	5.000000e+00	
312	1.350995e+00	0.000000e+00	0.000000e+00	5.000000e+00	
313	1.360995e+00	0.000000e+00	0.000000e+00	5.000000e+00	
314	1.370995e+00	0.000000e+00	0.000000e+00	5.000000e+00	
315	1.380995e+00	0.000000e+00	0.000000e+00	5.000000e+00	
316	1.390995e+00	0.000000e+00	0.000000e+00	5.000000e+00	
317	1.400995e+00	0.000000e+00	0.000000e+00	5.000000e+00	
318	1.410995e+00	0.000000e+00	0.000000e+00	5.000000e+00	
319	1.420995e+00	0.000000e+00	0.000000e+00	5.000000e+00	
320	1.430995e+00	0.000000e+00	0.000000e+00	5.000000e+00	
321	1.440995e+00	0.000000e+00	0.000000e+00	5.000000e+00	
322	1.450995e+00	0.000000e+00	0.000000e+00	5.000000e+00	
323	1.460995e+00	0.000000e+00	0.000000e+00	5.000000e+00	
324	1.470995e+00	0.000000e+00	0.000000e+00	5.000000e+00	
325	1.480995e+00	0.000000e+00	0.000000e+00	5.000000e+00	
326	1.490995e+00	0.000000e+00	0.000000e+00	5.000000e+00	
327	1.500995e+00	0.000000e+00	0.000000e+00	5.000000e+00	
328	1.510995e+00	0.000000e+00	0.000000e+00	5.000000e+00	
329	1.520995e+00	0.000000e+00	0.000000e+00	5.000000e+00	
330	1.530995e+00	0.000000e+00	0.000000e+00	5.000000e+00	
331	1.540995e+00	0.000000e+00	0.000000e+00	5.000000e+00	
