* c:\users\vinit\desktop\summation-of-counter\vinit_inverter\vinit_inverter.cir
Transient Analysis  Mon Jan 30 00:33:18  2023
--------------------------------------------------------------------------------
Index   time            v1#branch       v2#branch       
--------------------------------------------------------------------------------
0	0.000000e+00	-2.36689e-12	0.000000e+00	
1	1.000000e-12	5.326155e-05	-1.07035e-04	
2	2.000000e-12	5.885864e-05	-1.26705e-04	
3	4.000000e-12	6.762615e-05	-1.55400e-04	
4	8.000000e-12	7.490906e-05	-1.80824e-04	
5	1.600000e-11	7.595253e-05	-1.97948e-04	
6	3.200000e-11	7.379589e-05	-2.31258e-04	
7	6.400000e-11	6.906983e-05	-2.52244e-04	
8	1.000000e-10	1.447671e-05	-9.68319e-05	
9	1.054466e-10	2.190738e-08	-9.46288e-07	
10	1.163398e-10	-1.03478e-07	8.330990e-07	
11	1.381263e-10	1.183415e-07	-8.08558e-07	
12	1.816991e-10	-1.45047e-07	7.719903e-07	
13	2.688448e-10	1.375943e-07	-7.79713e-07	
14	4.431363e-10	-1.54230e-07	7.579591e-07	
15	7.917192e-10	1.422158e-07	-7.72812e-07	
16	1.488885e-09	-1.56316e-07	7.545035e-07	
17	2.883217e-09	1.435752e-07	-7.71139e-07	
18	5.671880e-09	-1.56352e-07	7.535333e-07	
19	1.124921e-08	1.447186e-07	-7.71125e-07	
20	2.240386e-08	-1.54892e-07	7.486906e-07	
21	4.471316e-08	1.483905e-07	-8.22120e-07	
22	8.053531e-08	-1.50953e-07	7.549236e-07	
23	1.015094e-07	1.503057e-07	-7.74099e-07	
24	1.118165e-07	-1.50654e-07	7.641307e-07	
25	1.270741e-07	1.504493e-07	-7.69019e-07	
26	1.421043e-07	-1.50598e-07	7.657080e-07	
27	1.571639e-07	1.505133e-07	-7.66559e-07	
28	1.731151e-07	-1.50600e-07	7.653568e-07	
29	1.886443e-07	1.505468e-07	-7.65172e-07	
30	2.083056e-07	-1.50616e-07	7.646012e-07	
31	2.310121e-07	1.505667e-07	-7.64299e-07	
32	2.660167e-07	-1.50627e-07	7.640498e-07	
33	3.180479e-07	1.505757e-07	-7.63893e-07	
34	4.184973e-07	-1.50632e-07	7.638128e-07	
35	6.193961e-07	1.505783e-07	-7.63772e-07	
36	1.021194e-06	-1.50634e-07	7.637516e-07	
37	1.824789e-06	1.505790e-07	-7.63741e-07	
38	3.431980e-06	-1.50634e-07	7.637363e-07	
39	6.646361e-06	1.505792e-07	-7.63734e-07	
40	1.307512e-05	-1.50634e-07	7.637325e-07	
41	2.593265e-05	1.505792e-07	-7.63732e-07	
42	5.164770e-05	-1.50634e-07	7.637315e-07	
43	1.030778e-04	1.505792e-07	-7.63731e-07	
44	2.059380e-04	-1.50634e-07	7.637313e-07	
45	4.116584e-04	1.505792e-07	-7.63731e-07	
46	8.230992e-04	-1.50634e-07	7.637312e-07	
47	1.645981e-03	1.505792e-07	-7.63731e-07	
48	2.645981e-03	-1.50634e-07	7.637312e-07	
49	3.645981e-03	1.505792e-07	-7.63731e-07	
50	4.645981e-03	-1.50634e-07	7.637312e-07	
51	5.645981e-03	1.505792e-07	-7.63731e-07	
52	6.645981e-03	-1.50634e-07	7.637311e-07	
53	7.645981e-03	1.505792e-07	-7.63731e-07	
54	8.645981e-03	-1.50634e-07	7.637311e-07	

Index   time            v1#branch       v2#branch       
--------------------------------------------------------------------------------
55	9.645981e-03	1.505792e-07	-7.63731e-07	
56	1.064598e-02	-1.50634e-07	7.637311e-07	
57	1.164598e-02	1.505792e-07	-7.63731e-07	
58	1.264598e-02	-1.50634e-07	7.637311e-07	
59	1.364598e-02	1.505792e-07	-7.63731e-07	
60	1.464598e-02	-1.50634e-07	7.637311e-07	
61	1.564598e-02	1.505792e-07	-7.63731e-07	
62	1.664598e-02	-1.50634e-07	7.637311e-07	
63	1.764598e-02	1.505792e-07	-7.63731e-07	
64	1.864598e-02	-1.50634e-07	7.637311e-07	
65	1.964598e-02	1.505792e-07	-7.63731e-07	
66	2.064598e-02	-1.50634e-07	7.637310e-07	
67	2.164598e-02	1.505792e-07	-7.63731e-07	
68	2.264598e-02	-1.50634e-07	7.637310e-07	
69	2.364598e-02	1.505792e-07	-7.63731e-07	
70	2.464598e-02	-1.50634e-07	7.637310e-07	
71	2.564598e-02	1.505792e-07	-7.63731e-07	
72	2.664598e-02	-1.50634e-07	7.637310e-07	
73	2.764598e-02	1.505792e-07	-7.63731e-07	
74	2.864598e-02	-1.50634e-07	7.637310e-07	
75	2.964598e-02	1.505792e-07	-7.63731e-07	
76	3.064598e-02	-1.50634e-07	7.637310e-07	
77	3.164598e-02	1.505792e-07	-7.63731e-07	
78	3.264598e-02	-1.50634e-07	7.637309e-07	
79	3.364598e-02	1.505792e-07	-7.63731e-07	
80	3.464598e-02	-1.50634e-07	7.637309e-07	
81	3.564598e-02	1.505792e-07	-7.63731e-07	
82	3.664598e-02	-1.50634e-07	7.637309e-07	
83	3.764598e-02	1.505792e-07	-7.63731e-07	
84	3.864598e-02	-1.50634e-07	7.637309e-07	
85	3.964598e-02	1.505792e-07	-7.63731e-07	
86	4.064598e-02	-1.50634e-07	7.637309e-07	
87	4.164598e-02	1.505792e-07	-7.63731e-07	
88	4.264598e-02	-1.50634e-07	7.637309e-07	
89	4.364598e-02	1.505792e-07	-7.63731e-07	
90	4.464598e-02	-1.50634e-07	7.637308e-07	
91	4.564598e-02	1.505792e-07	-7.63731e-07	
92	4.664598e-02	-1.50634e-07	7.637308e-07	
93	4.764598e-02	1.505792e-07	-7.63731e-07	
94	4.864598e-02	-1.50634e-07	7.637308e-07	
95	4.964598e-02	1.505792e-07	-7.63731e-07	
96	5.064598e-02	-1.50634e-07	7.637308e-07	
97	5.164598e-02	1.505792e-07	-7.63731e-07	
98	5.264598e-02	-1.50634e-07	7.637308e-07	
99	5.364598e-02	1.505792e-07	-7.63731e-07	
100	5.464598e-02	-1.50634e-07	7.637308e-07	
101	5.564598e-02	1.505792e-07	-7.63731e-07	
102	5.664598e-02	-1.50634e-07	7.637307e-07	
103	5.764598e-02	1.505792e-07	-7.63731e-07	
104	5.864598e-02	-1.50634e-07	7.637307e-07	
105	5.964598e-02	1.505792e-07	-7.63731e-07	
106	6.064598e-02	-1.50634e-07	7.637307e-07	
107	6.164598e-02	1.505792e-07	-7.63731e-07	
108	6.264598e-02	-1.50634e-07	7.637307e-07	
109	6.364598e-02	1.505792e-07	-7.63731e-07	
110	6.464598e-02	-1.50634e-07	7.637307e-07	
111	6.564598e-02	1.505792e-07	-7.63731e-07	
112	6.664598e-02	-1.50634e-07	7.637307e-07	

Index   time            v1#branch       v2#branch       
--------------------------------------------------------------------------------
113	6.764598e-02	1.505792e-07	-7.63731e-07	
114	6.864598e-02	-1.50634e-07	7.637306e-07	
115	6.964598e-02	1.505792e-07	-7.63731e-07	
116	7.064598e-02	-1.50634e-07	7.637306e-07	
117	7.164598e-02	1.505792e-07	-7.63731e-07	
118	7.264598e-02	-1.50634e-07	7.637306e-07	
119	7.364598e-02	1.505792e-07	-7.63731e-07	
120	7.464598e-02	-1.50634e-07	7.637306e-07	
121	7.564598e-02	1.505792e-07	-7.63731e-07	
122	7.664598e-02	-1.50634e-07	7.637306e-07	
123	7.764598e-02	1.505792e-07	-7.63731e-07	
124	7.864598e-02	-1.50634e-07	7.637306e-07	
125	7.964598e-02	1.505792e-07	-7.63731e-07	
126	8.064598e-02	-1.50634e-07	7.637305e-07	
127	8.164598e-02	1.505792e-07	-7.63731e-07	
128	8.264598e-02	-1.50634e-07	7.637305e-07	
129	8.364598e-02	1.505792e-07	-7.63731e-07	
130	8.464598e-02	-1.50634e-07	7.637305e-07	
131	8.564598e-02	1.505792e-07	-7.63731e-07	
132	8.664598e-02	-1.50634e-07	7.637305e-07	
133	8.764598e-02	1.505792e-07	-7.63730e-07	
134	8.864598e-02	-1.50634e-07	7.637305e-07	
135	8.964598e-02	1.505792e-07	-7.63730e-07	
136	9.064598e-02	-1.50634e-07	7.637305e-07	
137	9.164598e-02	1.505792e-07	-7.63730e-07	
138	9.264598e-02	-1.50634e-07	7.637304e-07	
139	9.364598e-02	1.505792e-07	-7.63730e-07	
140	9.464598e-02	-1.50634e-07	7.637304e-07	
141	9.564598e-02	1.505792e-07	-7.63730e-07	
142	9.664598e-02	-1.50634e-07	7.637304e-07	
143	9.764598e-02	1.505792e-07	-7.63730e-07	
144	9.864598e-02	-1.50634e-07	7.637304e-07	
145	9.964598e-02	1.505792e-07	-7.63730e-07	
146	1.006460e-01	-1.50634e-07	7.637304e-07	
147	1.016460e-01	1.505792e-07	-7.63730e-07	
148	1.026460e-01	-1.50634e-07	7.637304e-07	
149	1.036460e-01	1.505792e-07	-7.63730e-07	
150	1.046460e-01	-1.50634e-07	7.637303e-07	
151	1.056460e-01	1.505792e-07	-7.63730e-07	
152	1.066460e-01	-1.50634e-07	7.637303e-07	
153	1.076460e-01	1.505792e-07	-7.63730e-07	
154	1.086460e-01	-1.50634e-07	7.637303e-07	
155	1.096460e-01	1.505792e-07	-7.63730e-07	
156	1.106460e-01	-1.50634e-07	7.637303e-07	
157	1.116460e-01	1.505792e-07	-7.63730e-07	
158	1.126460e-01	-1.50634e-07	7.637303e-07	
159	1.136460e-01	1.505792e-07	-7.63730e-07	
160	1.146460e-01	-1.50634e-07	7.637303e-07	
161	1.156460e-01	1.505792e-07	-7.63730e-07	
162	1.166460e-01	-1.50634e-07	7.637302e-07	
163	1.176460e-01	1.505792e-07	-7.63730e-07	
164	1.186460e-01	-1.50634e-07	7.637302e-07	
165	1.196460e-01	1.505792e-07	-7.63730e-07	
166	1.206460e-01	-1.50634e-07	7.637302e-07	
167	1.216460e-01	1.505792e-07	-7.63730e-07	
168	1.226460e-01	-1.50634e-07	7.637302e-07	
169	1.236460e-01	1.505792e-07	-7.63730e-07	
170	1.246460e-01	-1.50634e-07	7.637302e-07	

Index   time            v1#branch       v2#branch       
--------------------------------------------------------------------------------
171	1.256460e-01	1.505792e-07	-7.63730e-07	
172	1.266460e-01	-1.50634e-07	7.637302e-07	
173	1.276460e-01	1.505792e-07	-7.63730e-07	
174	1.286460e-01	-1.50634e-07	7.637301e-07	
175	1.296460e-01	1.505792e-07	-7.63730e-07	
176	1.306460e-01	-1.50634e-07	7.637301e-07	
177	1.316460e-01	1.505792e-07	-7.63730e-07	
178	1.326460e-01	-1.50634e-07	7.637301e-07	
179	1.336460e-01	1.505792e-07	-7.63730e-07	
180	1.346460e-01	-1.50634e-07	7.637301e-07	
181	1.356460e-01	1.505792e-07	-7.63730e-07	
182	1.366460e-01	-1.50634e-07	7.637301e-07	
183	1.376460e-01	1.505792e-07	-7.63730e-07	
184	1.386460e-01	-1.50634e-07	7.637301e-07	
185	1.396460e-01	1.505792e-07	-7.63730e-07	
186	1.406460e-01	-1.50634e-07	7.637301e-07	
187	1.416460e-01	1.505792e-07	-7.63730e-07	
188	1.426460e-01	-1.50634e-07	7.637300e-07	
189	1.436460e-01	1.505792e-07	-7.63730e-07	
190	1.446460e-01	-1.50634e-07	7.637300e-07	
191	1.456460e-01	1.505792e-07	-7.63730e-07	
192	1.466460e-01	-1.50634e-07	7.637300e-07	
193	1.476460e-01	1.505792e-07	-7.63730e-07	
194	1.486460e-01	-1.50634e-07	7.637300e-07	
195	1.496460e-01	1.505792e-07	-7.63730e-07	
196	1.506460e-01	-1.50634e-07	7.637300e-07	
197	1.516460e-01	1.505793e-07	-7.63730e-07	
198	1.526460e-01	-1.50634e-07	7.637300e-07	
199	1.536460e-01	1.505793e-07	-7.63730e-07	
200	1.546460e-01	-1.50634e-07	7.637299e-07	
201	1.556460e-01	1.505793e-07	-7.63730e-07	
202	1.566460e-01	-1.50634e-07	7.637299e-07	
203	1.576460e-01	1.505793e-07	-7.63730e-07	
204	1.586460e-01	-1.50634e-07	7.637299e-07	
205	1.596460e-01	1.505793e-07	-7.63730e-07	
206	1.606460e-01	-1.50634e-07	7.637299e-07	
207	1.616460e-01	1.505793e-07	-7.63730e-07	
208	1.626460e-01	-1.50634e-07	7.637299e-07	
209	1.636460e-01	1.505793e-07	-7.63730e-07	
210	1.646460e-01	-1.50634e-07	7.637299e-07	
211	1.656460e-01	1.505793e-07	-7.63730e-07	
212	1.666460e-01	-1.50634e-07	7.637298e-07	
213	1.676460e-01	1.505793e-07	-7.63730e-07	
214	1.686460e-01	-1.50634e-07	7.637298e-07	
215	1.696460e-01	1.505793e-07	-7.63730e-07	
216	1.706460e-01	-1.50634e-07	7.637298e-07	
217	1.716460e-01	1.505793e-07	-7.63730e-07	
218	1.726460e-01	-1.50634e-07	7.637298e-07	
219	1.736460e-01	1.505793e-07	-7.63730e-07	
220	1.746460e-01	-1.50634e-07	7.637298e-07	
221	1.756460e-01	1.505793e-07	-7.63730e-07	
222	1.766460e-01	-1.50634e-07	7.637298e-07	
223	1.776460e-01	1.505793e-07	-7.63730e-07	
224	1.786460e-01	-1.50634e-07	7.637297e-07	
225	1.796460e-01	1.505793e-07	-7.63730e-07	
226	1.806460e-01	-1.50634e-07	7.637297e-07	
227	1.816460e-01	1.505793e-07	-7.63730e-07	
228	1.826460e-01	-1.50634e-07	7.637297e-07	

Index   time            v1#branch       v2#branch       
--------------------------------------------------------------------------------
229	1.836460e-01	1.505793e-07	-7.63730e-07	
230	1.846460e-01	-1.50634e-07	7.637297e-07	
231	1.856460e-01	1.505793e-07	-7.63730e-07	
232	1.866460e-01	-1.50634e-07	7.637297e-07	
233	1.876460e-01	1.505793e-07	-7.63730e-07	
234	1.886460e-01	-1.50634e-07	7.637297e-07	
235	1.896460e-01	1.505793e-07	-7.63730e-07	
236	1.906460e-01	-1.50634e-07	7.637296e-07	
237	1.916460e-01	1.505793e-07	-7.63730e-07	
238	1.926460e-01	-1.50634e-07	7.637296e-07	
239	1.936460e-01	1.505793e-07	-7.63730e-07	
240	1.946460e-01	-1.50634e-07	7.637296e-07	
241	1.956460e-01	1.505793e-07	-7.63730e-07	
242	1.966460e-01	-1.50634e-07	7.637296e-07	
243	1.976460e-01	1.505793e-07	-7.63730e-07	
244	1.986460e-01	-1.50634e-07	7.637296e-07	
245	1.996460e-01	1.505793e-07	-7.63730e-07	
246	2.006460e-01	-1.50634e-07	7.637296e-07	
247	2.016460e-01	1.505793e-07	-7.63730e-07	
248	2.026460e-01	-1.50634e-07	7.637295e-07	
249	2.036460e-01	1.505793e-07	-7.63730e-07	
250	2.046460e-01	-1.50634e-07	7.637295e-07	
251	2.056460e-01	1.505793e-07	-7.63730e-07	
252	2.066460e-01	-1.50634e-07	7.637295e-07	
253	2.076460e-01	1.505793e-07	-7.63730e-07	
254	2.086460e-01	-1.50634e-07	7.637295e-07	
255	2.096460e-01	1.505793e-07	-7.63729e-07	
256	2.106460e-01	-1.50634e-07	7.637295e-07	
257	2.116460e-01	1.505793e-07	-7.63729e-07	
258	2.126460e-01	-1.50634e-07	7.637295e-07	
259	2.136460e-01	1.505793e-07	-7.63729e-07	
260	2.146460e-01	-1.50634e-07	7.637294e-07	
261	2.156460e-01	1.505793e-07	-7.63729e-07	
262	2.166460e-01	-1.50634e-07	7.637294e-07	
263	2.176460e-01	1.505793e-07	-7.63729e-07	
264	2.186460e-01	-1.50634e-07	7.637294e-07	
265	2.196460e-01	1.505793e-07	-7.63729e-07	
266	2.206460e-01	-1.50634e-07	7.637294e-07	
267	2.216460e-01	1.505793e-07	-7.63729e-07	
268	2.226460e-01	-1.50634e-07	7.637294e-07	
269	2.236460e-01	1.505793e-07	-7.63729e-07	
270	2.246460e-01	-1.50634e-07	7.637294e-07	
271	2.256460e-01	1.505793e-07	-7.63729e-07	
272	2.266460e-01	-1.50634e-07	7.637293e-07	
273	2.276460e-01	1.505793e-07	-7.63729e-07	
274	2.286460e-01	-1.50634e-07	7.637293e-07	
275	2.296460e-01	1.505793e-07	-7.63729e-07	
276	2.306460e-01	-1.50634e-07	7.637293e-07	
277	2.316460e-01	1.505793e-07	-7.63729e-07	
278	2.326460e-01	-1.50634e-07	7.637293e-07	
279	2.336460e-01	1.505793e-07	-7.63729e-07	
280	2.346460e-01	-1.50634e-07	7.637293e-07	
281	2.356460e-01	1.505793e-07	-7.63729e-07	
282	2.366460e-01	-1.50634e-07	7.637293e-07	
283	2.376460e-01	1.505793e-07	-7.63729e-07	
284	2.386460e-01	-1.50634e-07	7.637292e-07	
285	2.396460e-01	1.505793e-07	-7.63729e-07	
286	2.406460e-01	-1.50634e-07	7.637292e-07	

Index   time            v1#branch       v2#branch       
--------------------------------------------------------------------------------
287	2.416460e-01	1.505793e-07	-7.63729e-07	
288	2.426460e-01	-1.50634e-07	7.637292e-07	
289	2.436460e-01	1.505793e-07	-7.63729e-07	
290	2.446460e-01	-1.50634e-07	7.637292e-07	
291	2.456460e-01	1.505793e-07	-7.63729e-07	
292	2.466460e-01	-1.50634e-07	7.637292e-07	
293	2.476460e-01	1.505793e-07	-7.63729e-07	
294	2.486460e-01	-1.50634e-07	7.637292e-07	
295	2.496460e-01	1.505793e-07	-7.63729e-07	
296	2.506460e-01	-1.50634e-07	7.637291e-07	
297	2.516460e-01	1.505793e-07	-7.63729e-07	
298	2.526460e-01	-1.50634e-07	7.637291e-07	
299	2.536460e-01	1.505793e-07	-7.63729e-07	
300	2.546460e-01	-1.50634e-07	7.637291e-07	
301	2.556460e-01	1.505793e-07	-7.63729e-07	
302	2.566460e-01	-1.50634e-07	7.637291e-07	
303	2.576460e-01	1.505793e-07	-7.63729e-07	
304	2.586460e-01	-1.50634e-07	7.637291e-07	
305	2.596460e-01	1.505793e-07	-7.63729e-07	
306	2.606460e-01	-1.50634e-07	7.637291e-07	
307	2.616460e-01	1.505793e-07	-7.63729e-07	
308	2.626460e-01	-1.50634e-07	7.637291e-07	
309	2.636460e-01	1.505793e-07	-7.63729e-07	
310	2.646460e-01	-1.50634e-07	7.637290e-07	
311	2.656460e-01	1.505793e-07	-7.63729e-07	
312	2.666460e-01	-1.50634e-07	7.637290e-07	
313	2.676460e-01	1.505793e-07	-7.63729e-07	
314	2.686460e-01	-1.50634e-07	7.637290e-07	
315	2.696460e-01	1.505793e-07	-7.63729e-07	
316	2.706460e-01	-1.50634e-07	7.637290e-07	
317	2.716460e-01	1.505793e-07	-7.63729e-07	
318	2.726460e-01	-1.50634e-07	7.637290e-07	
319	2.736460e-01	1.505793e-07	-7.63729e-07	
320	2.746460e-01	-1.50634e-07	7.637290e-07	
321	2.756460e-01	1.505793e-07	-7.63729e-07	
322	2.766460e-01	-1.50634e-07	7.637289e-07	
323	2.776460e-01	1.505793e-07	-7.63729e-07	
324	2.786460e-01	-1.50634e-07	7.637289e-07	
325	2.796460e-01	1.505793e-07	-7.63729e-07	
326	2.806460e-01	-1.50634e-07	7.637289e-07	
327	2.816460e-01	1.505793e-07	-7.63729e-07	
328	2.826460e-01	-1.50634e-07	7.637289e-07	
329	2.836460e-01	1.505793e-07	-7.63729e-07	
330	2.846460e-01	-1.50634e-07	7.637289e-07	
331	2.856460e-01	1.505793e-07	-7.63729e-07	
332	2.866460e-01	-1.50634e-07	7.637289e-07	
333	2.876460e-01	1.505793e-07	-7.63729e-07	
334	2.886460e-01	-1.50634e-07	7.637288e-07	
335	2.896460e-01	1.505793e-07	-7.63729e-07	
336	2.906460e-01	-1.50634e-07	7.637288e-07	
337	2.916460e-01	1.505793e-07	-7.63729e-07	
338	2.926460e-01	-1.50634e-07	7.637288e-07	
339	2.936460e-01	1.505793e-07	-7.63729e-07	
340	2.946460e-01	-1.50634e-07	7.637288e-07	
341	2.956460e-01	1.505793e-07	-7.63729e-07	
342	2.966460e-01	-1.50634e-07	7.637288e-07	
343	2.976460e-01	1.505793e-07	-7.63729e-07	
344	2.986460e-01	-1.50634e-07	7.637288e-07	

Index   time            v1#branch       v2#branch       
--------------------------------------------------------------------------------
345	2.996460e-01	1.505793e-07	-7.63729e-07	
346	3.006460e-01	-1.50634e-07	7.637287e-07	
347	3.016460e-01	1.505793e-07	-7.63729e-07	
348	3.026460e-01	-1.50634e-07	7.637287e-07	
349	3.036460e-01	1.505793e-07	-7.63729e-07	
350	3.046460e-01	-1.50634e-07	7.637287e-07	
351	3.056460e-01	1.505793e-07	-7.63729e-07	
352	3.066460e-01	-1.50634e-07	7.637287e-07	
353	3.076460e-01	1.505793e-07	-7.63729e-07	
354	3.086460e-01	-1.50634e-07	7.637287e-07	
355	3.096460e-01	1.505793e-07	-7.63729e-07	
356	3.106460e-01	-1.50634e-07	7.637287e-07	
357	3.116460e-01	1.505793e-07	-7.63729e-07	
358	3.126460e-01	-1.50634e-07	7.637286e-07	
359	3.136460e-01	1.505793e-07	-7.63729e-07	
360	3.146460e-01	-1.50634e-07	7.637286e-07	
361	3.156460e-01	1.505793e-07	-7.63729e-07	
362	3.166460e-01	-1.50634e-07	7.637286e-07	
363	3.176460e-01	1.505793e-07	-7.63729e-07	
364	3.186460e-01	-1.50634e-07	7.637286e-07	
365	3.196460e-01	1.505793e-07	-7.63729e-07	
366	3.206460e-01	-1.50634e-07	7.637286e-07	
367	3.216460e-01	1.505793e-07	-7.63729e-07	
368	3.226460e-01	-1.50634e-07	7.637286e-07	
369	3.236460e-01	1.505793e-07	-7.63729e-07	
370	3.246460e-01	-1.50634e-07	7.637285e-07	
371	3.256460e-01	1.505793e-07	-7.63729e-07	
372	3.266460e-01	-1.50634e-07	7.637285e-07	
373	3.276460e-01	1.505793e-07	-7.63729e-07	
374	3.286460e-01	-1.50634e-07	7.637285e-07	
375	3.296460e-01	1.505793e-07	-7.63729e-07	
376	3.306460e-01	-1.50634e-07	7.637285e-07	
377	3.316460e-01	1.505793e-07	-7.63728e-07	
378	3.326460e-01	-1.50634e-07	7.637285e-07	
379	3.336460e-01	1.505793e-07	-7.63728e-07	
380	3.346460e-01	-1.50634e-07	7.637285e-07	
381	3.356460e-01	1.505793e-07	-7.63728e-07	
382	3.366460e-01	-1.50634e-07	7.637284e-07	
383	3.376460e-01	1.505793e-07	-7.63728e-07	
384	3.386460e-01	-1.50634e-07	7.637284e-07	
385	3.396460e-01	1.505793e-07	-7.63728e-07	
386	3.406460e-01	-1.50634e-07	7.637284e-07	
387	3.416460e-01	1.505793e-07	-7.63728e-07	
388	3.426460e-01	-1.50634e-07	7.637284e-07	
389	3.436460e-01	1.505793e-07	-7.63728e-07	
390	3.446460e-01	-1.50634e-07	7.637284e-07	
391	3.456460e-01	1.505793e-07	-7.63728e-07	
392	3.466460e-01	-1.50634e-07	7.637284e-07	
393	3.476460e-01	1.505793e-07	-7.63728e-07	
394	3.486460e-01	-1.50634e-07	7.637283e-07	
395	3.496460e-01	1.505793e-07	-7.63728e-07	
396	3.506460e-01	-1.50634e-07	7.637283e-07	
397	3.516460e-01	1.505793e-07	-7.63728e-07	
398	3.526460e-01	-1.50634e-07	7.637283e-07	
399	3.536460e-01	1.505793e-07	-7.63728e-07	
400	3.546460e-01	-1.50634e-07	7.637283e-07	
401	3.556460e-01	1.505793e-07	-7.63728e-07	
402	3.566460e-01	-1.50634e-07	7.637283e-07	

Index   time            v1#branch       v2#branch       
--------------------------------------------------------------------------------
403	3.576460e-01	1.505793e-07	-7.63728e-07	
404	3.586460e-01	-1.50634e-07	7.637283e-07	
405	3.596460e-01	1.505793e-07	-7.63728e-07	
406	3.606460e-01	-1.50634e-07	7.637282e-07	
407	3.616460e-01	1.505793e-07	-7.63728e-07	
408	3.626460e-01	-1.50634e-07	7.637282e-07	
409	3.636460e-01	1.505793e-07	-7.63728e-07	
410	3.646460e-01	-1.50634e-07	7.637282e-07	
411	3.656460e-01	1.505793e-07	-7.63728e-07	
412	3.666460e-01	-1.50634e-07	7.637282e-07	
413	3.676460e-01	1.505793e-07	-7.63728e-07	
414	3.686460e-01	-1.50634e-07	7.637282e-07	
415	3.696460e-01	1.505793e-07	-7.63728e-07	
416	3.706460e-01	-1.50634e-07	7.637282e-07	
417	3.716460e-01	1.505793e-07	-7.63728e-07	
418	3.726460e-01	-1.50634e-07	7.637282e-07	
419	3.736460e-01	1.505793e-07	-7.63728e-07	
420	3.746460e-01	-1.50634e-07	7.637281e-07	
421	3.756460e-01	1.505793e-07	-7.63728e-07	
422	3.766460e-01	-1.50634e-07	7.637281e-07	
423	3.776460e-01	1.505793e-07	-7.63728e-07	
424	3.786460e-01	-1.50634e-07	7.637281e-07	
425	3.796460e-01	1.505793e-07	-7.63728e-07	
